
**** 05/23/15 12:55:22 ********* PSpice 9.2 (Mar 2000) ******** ID# 1 ********

 ** Profile: "SCHEMATIC1-Herat_Rate_Amplifier"  [ C:\Users\josefr\Dropbox\Upct\Proyecto\Design\heart_rate_amplifier-SCHEMATIC1-Herat_


 ****     CIRCUIT DESCRIPTION


******************************************************************************




** Creating circuit file "heart_rate_amplifier-SCHEMATIC1-Herat_Rate_Amplifier.sim.cir" 
** WARNING: THIS AUTOMATICALLY GENERATED FILE MAY BE OVERWRITTEN BY SUBSEQUENT SIMULATIONS

*Libraries: 
* Local Libraries :
* From [PSPICE NETLIST] section of c:\Orcad\PSpice\PSpice.ini file:
.lib "nom.lib" 

*Analysis directives: 
.TRAN  0 2s 3 
.PROBE V(*) I(*) W(*) D(*) NOISE(*) 
.INC ".\heart_rate_amplifier-SCHEMATIC1.net" 



**** INCLUDING heart_rate_amplifier-SCHEMATIC1.net ****
* source HEART_RATE_AMPLIFIER
X_U1A         N00719 N00812 N00528 N03657 N00920 LM358
R_R5         N00920 N00812  1M  
V_V2         N00689 N03657 DC 0Vdc AC 1uVac 1
X_U2A         N00995 N01103 N00528 N03657 N01159 LM358
R_R6         N00750 N00812  1k  
R_R7         N00750 N00995  1k  
D_D1         N00750 N000711 D1N4148 
R_R8         N01103 N00750  1k  
D_D2         N000711 N03657 D1N4148 
X_R10    N00750 N00920 N01802 SCHEMATIC1_R10 
R_R9         N01159 N01103  1k  
C_C2         N00812 N00920  1n  
C_C3         N01802 N00995  2.2uF  
C_C1         N00689 N00719  2.2uF  
V_V1         N00528 N03657 6Vdc
C_C4         N01103 N01159  1n  
R_R2         N00689 N00528  22k  
R_R3         N00528 N00750  4.7k  
R_R4         N00750 N00719  47K  

.subckt SCHEMATIC1_R10 1 2 t  
RT_R10         1 t {(1K*(1-0.5))+.001}
RB_R10         t 2 {(1K*0.5)+.001}
.ends SCHEMATIC1_R10

**** RESUMING heart_rate_amplifier-SCHEMATIC1-Herat_Rate_Amplifier.sim.cir ****
.END

**** 05/23/15 12:55:22 ********* PSpice 9.2 (Mar 2000) ******** ID# 1 ********

 ** Profile: "SCHEMATIC1-Herat_Rate_Amplifier"  [ C:\Users\josefr\Dropbox\Upct\Proyecto\Design\heart_rate_amplifier-SCHEMATIC1-Herat_


 ****     Diode MODEL PARAMETERS


******************************************************************************




               D1N4148         X_U1A.x_lm358.dx 
          IS    2.682000E-09  800.000000E-18 
           N    1.836                        
         ISR    1.565000E-09                 
         IKF     .04417                      
          BV  100                            
         IBV  100.000000E-06                 
          RS     .5664          1            
          TT   11.540000E-09                 
         CJO    4.000000E-12                 
          VJ     .5                          
           M     .3333                       


               X_U1A.x_lm358.dy 
          IS  800.000000E-18 
          RS    1.000000E-03 
         CJO   10.000000E-12 


               X_U2A.x_lm358.dx 
          IS  800.000000E-18 
          RS    1            


               X_U2A.x_lm358.dy 
          IS  800.000000E-18 
          RS    1.000000E-03 
         CJO   10.000000E-12 


**** 05/23/15 12:55:22 ********* PSpice 9.2 (Mar 2000) ******** ID# 1 ********

 ** Profile: "SCHEMATIC1-Herat_Rate_Amplifier"  [ C:\Users\josefr\Dropbox\Upct\Proyecto\Design\heart_rate_amplifier-SCHEMATIC1-Herat_


 ****     BJT MODEL PARAMETERS


******************************************************************************




               X_U1A.x_lm358.qx 
               PNP             
          IS  800.000000E-18 
          BF  166.7          
          NF    1            
          BR    1            
          NR    1            
          CN    2.2          
           D     .52         


               X_U2A.x_lm358.qx 
               PNP             
          IS  800.000000E-18 
          BF  166.7          
          NF    1            
          BR    1            
          NR    1            
          CN    2.2          
           D     .52         


**** 05/23/15 12:55:22 ********* PSpice 9.2 (Mar 2000) ******** ID# 1 ********

 ** Profile: "SCHEMATIC1-Herat_Rate_Amplifier"  [ C:\Users\josefr\Dropbox\Upct\Proyecto\Design\heart_rate_amplifier-SCHEMATIC1-Herat_


 ****     Current Controlled Switch MODEL PARAMETERS


******************************************************************************




               X_U1A.x_lm358.sw2 
         RON    1            
        ROFF   10.000000E+06 
         ION    0            
        IOFF   -1.000000E-06 


               X_U1A.x_lm358.sw1 
         RON    1            
        ROFF   10.000000E+06 
         ION   -1.000000E-06 
        IOFF    0            


               X_U1A.x_lm358.sw3 
         RON    1            
        ROFF   10.000000E+06 
         ION   -1.000000E-06 
        IOFF    0            


               X_U1A.x_lm358.sw4 
         RON    1            
        ROFF   10.000000E+06 
         ION    0            
        IOFF   -1.000000E-06 


               X_U2A.x_lm358.sw2 
         RON    1            
        ROFF   10.000000E+06 
         ION    0            
        IOFF   -1.000000E-06 


               X_U2A.x_lm358.sw1 
         RON    1            
        ROFF   10.000000E+06 
         ION   -1.000000E-06 
        IOFF    0            


               X_U2A.x_lm358.sw3 
         RON    1            
        ROFF   10.000000E+06 
         ION   -1.000000E-06 
        IOFF    0            


               X_U2A.x_lm358.sw4 
         RON    1            
        ROFF   10.000000E+06 
         ION    0            
        IOFF   -1.000000E-06 


**** 05/23/15 12:55:22 ********* PSpice 9.2 (Mar 2000) ******** ID# 1 ********

 ** Profile: "SCHEMATIC1-Herat_Rate_Amplifier"  [ C:\Users\josefr\Dropbox\Upct\Proyecto\Design\heart_rate_amplifier-SCHEMATIC1-Herat_


 ****     INITIAL TRANSIENT SOLUTION       TEMPERATURE =   27.000 DEG C


******************************************************************************



 NODE   VOLTAGE     NODE   VOLTAGE     NODE   VOLTAGE     NODE   VOLTAGE


(N00528)    3.4449 (N00689)   -2.5551 (N00719)   -1.3413 (N00750)   -1.3435     

(N00812)   -1.3409 (N00920)   -1.3409 (N00995)   -1.3434 (N01103)   -1.3430     

(N01159)   -1.3427 (N01802)   -1.3422 (N03657)   -2.5551 (N000711)   -1.9493    

(X_U1A.x_lm358.6) 336.6E-06           (X_U1A.x_lm358.7)   -1.3407               

(X_U1A.x_lm358.8)   -1.3407           (X_U1A.x_lm358.9)    0.0000               

(X_U1A.x_lm358.a)    3.4449           (X_U1A.x_lm358.b)-5.263E-06               

(X_U2A.x_lm358.6) 337.0E-06           (X_U2A.x_lm358.7)   -1.3426               

(X_U2A.x_lm358.8)   -1.3426           (X_U2A.x_lm358.9)    0.0000               

(X_U2A.x_lm358.a)    3.4449           (X_U2A.x_lm358.b)-645.5E-09               

(X_U1A.x_lm358.10)    -.7331          (X_U1A.x_lm358.11)   -2.5153              

(X_U1A.x_lm358.12)   -2.5149          (X_U1A.x_lm358.13)    -.7470              

(X_U1A.x_lm358.14)    -.7472          (X_U1A.x_lm358.53)    1.9449              

(X_U1A.x_lm358.54)   -1.7331          (X_U1A.x_lm358.90)     .0050              

(X_U1A.x_lm358.91)   40.0000          (X_U1A.x_lm358.92)  -40.0000              

(X_U1A.x_lm358.99)     .4449          (X_U2A.x_lm358.10)    -.7352              

(X_U2A.x_lm358.11)   -2.5153          (X_U2A.x_lm358.12)   -2.5149              

(X_U2A.x_lm358.13)    -.7491          (X_U2A.x_lm358.14)    -.7493              

(X_U2A.x_lm358.53)    1.9449          (X_U2A.x_lm358.54)   -1.7331              

(X_U2A.x_lm358.90) 390.0E-06          (X_U2A.x_lm358.91)   40.0000              

(X_U2A.x_lm358.92)  -40.0000          (X_U2A.x_lm358.99)     .4449          




    VOLTAGE SOURCE CURRENTS
    NAME         CURRENT

    V_V2         2.727E-04
    V_V1        -2.649E-03
    X_U1A.x_lm358.vb   3.366E-09
    X_U1A.x_lm358.vc   3.287E-12
    X_U1A.x_lm358.ve   4.776E-13
    X_U1A.x_lm358.vlim   5.007E-06
    X_U1A.x_lm358.vlp  -4.000E-11
    X_U1A.x_lm358.vln  -4.001E-11
    X_U2A.x_lm358.vb   3.370E-09
    X_U2A.x_lm358.vc   3.288E-12
    X_U2A.x_lm358.ve   4.306E-13
    X_U2A.x_lm358.vlim   3.900E-07
    X_U2A.x_lm358.vlp  -4.000E-11
    X_U2A.x_lm358.vln  -4.000E-11

    TOTAL POWER DISSIPATION   1.59E-02  WATTS



          JOB CONCLUDED

          TOTAL JOB TIME             .03
